T27EC 19648:210 SEGGER J-Link V6.30h Log File (0000ms, 30207ms total)
T27EC 19648:210 DLL Compiled: Mar 16 2018 18:02:51 (0000ms, 30207ms total)
T27EC 19648:210 Logging started @ 2018-07-11 09:12 (0000ms, 30207ms total)
T27EC 19648:210 JLINK_SetWarnOutHandler(...) (0000ms, 30207ms total)
T27EC 19648:210 JLINK_OpenEx(...)
Firmware: J-Link V9 compiled Mar  2 2018 17:07:57
Hardware: V9.40
S/N: 59409655
Feature(s): RDI, GDB, FlashDL, FlashBP, JFlash
TELNET listener socket opened on port 19021WEBSRV 
Starting webserver (0096ms, 30303ms total)
T27EC 19648:210 WEBSRV Webserver running on local port 19080 (0096ms, 30303ms total)
T27EC 19648:210   returns O.K. (0096ms, 30303ms total)
T27EC 19648:306 JLINK_GetEmuCaps()  returns 0xB9FF7BBF (0000ms, 30303ms total)
T27EC 19648:307 JLINK_TIF_GetAvailable(...) (0000ms, 30303ms total)
T27EC 19648:307 JLINK_SetErrorOutHandler(...) (0000ms, 30303ms total)
T27EC 19648:307 JLINK_ExecCommand("ProjectFile = "C:\MyBoard\STM32F746I\37. Kha test\MDK-ARM\JLinkSettings.ini"", ...).   returns 0x00 (0001ms, 30304ms total)
T27EC 19648:310 JLINK_ExecCommand("Device = STM32F746IGTx", ...). Device "STM32F746IG" selected.  returns 0x00 (0003ms, 30307ms total)
T27EC 19648:313 JLINK_ExecCommand("DisableConnectionTimeout", ...).   returns 0x01 (0000ms, 30307ms total)
T27EC 19648:313 JLINK_GetHardwareVersion()  returns 0x16F30 (0000ms, 30307ms total)
T27EC 19648:313 JLINK_GetDLLVersion()  returns 63008 (0000ms, 30307ms total)
T27EC 19648:313 JLINK_GetFirmwareString(...) (0000ms, 30307ms total)
T27EC 19648:318 JLINK_GetDLLVersion()  returns 63008 (0000ms, 30307ms total)
T27EC 19648:318 JLINK_GetCompileDateTime() (0000ms, 30307ms total)
T27EC 19648:320 JLINK_GetFirmwareString(...) (0000ms, 30307ms total)
T27EC 19648:321 JLINK_GetHardwareVersion()  returns 0x16F30 (0000ms, 30307ms total)
T27EC 19648:328 JLINK_TIF_Select(JLINKARM_TIF_SWD)  returns 0x00 (0000ms, 30307ms total)
T27EC 19648:328 JLINK_SetSpeed(10000) (0000ms, 30307ms total)
T27EC 19648:328 JLINK_GetId() >0x10B TIF>Found SW-DP with ID 0x5BA02477 >0x0D TIF> >0x28 TIF> >0x0D TIF> >0x28 TIF> >0x0D TIF> >0x28 TIF> >0x0D TIF> >0x28 TIF> >0x0D TIF> >0x21 TIF> >0x0D TIF> >0x28 TIF> >0x0D TIF> >0x28 TIF> >0x0D TIF> >0x28 TIF> >0x0D TIF> >0x21 TIF> >0x0D TIF> >0x21 TIF> >0x0D TIF> >0x28 TIF> >0x0D TIF> >0x21 TIF> >0x0D TIF> >0x21 TIF> >0x0D TIF> >0x28 TIF> >0x0D TIF> >0x21 TIF> >0x0D TIF> >0x21 TIF> >0x0D TIF> >0x28 TIF> >0x0D TIF> >0x21 TIF> >0x0D TIF> >0x21 TIF> >0x0D TIF>
 >0x28 TIF> >0x0D TIF> >0x21 TIF> >0x0D TIF> >0x21 TIF> >0x0D TIF> >0x28 TIF> >0x0D TIF> >0x21 TIF> >0x0D TIF> >0x21 TIF> >0x10B TIF>Found SW-DP with ID 0x5BA02477 >0x0D TIF> >0x28 TIF> >0x0D TIF> >0x28 TIF> >0x0D TIF> >0x28 TIF> >0x0D TIF> >0x28 TIF> >0x0D TIF> >0x21 TIF> >0x0D TIF> >0x28 TIF>Scanning AP map to find all available APs >0x0D TIF> >0x28 TIF> >0x0D TIF> >0x21 TIF> >0x0D TIF> >0x21 TIF> >0x0D TIF> >0x28 TIF> >0x0D TIF> >0x21 TIF> >0x0D TIF> >0x21 TIF>
AP[1]: Stopped AP scan as end of AP map has been reachedAP[0]: AHB-AP (IDR: 0x74770001)Iterating through AP map to find AHB-AP to use >0x42 TIF> >0x28 TIF> >0x0D TIF> >0x28 TIF> >0x0D TIF> >0x21 TIF> >0x0D TIF> >0x21 TIF> >0x42 TIF> >0x28 TIF> >0x0D TIF> >0x28 TIF> >0x0D TIF> >0x28 TIF> >0x0D TIF> >0x21 TIF> >0x0D TIF> >0x21 TIF>AP[0]: Core foundAP[0]: AHB-AP ROM base: 0xE00FD000 >0x0D TIF> >0x28 TIF> >0x0D TIF> >0x28 TIF> >0x0D TIF> >0x28 TIF> >0x0D TIF> >0x21 TIF> >0x0D TIF> >0x21 TIF>
CPUID register: 0x410FC271. Implementer code: 0x41 (ARM)Found Cortex-M7 r0p1, Little endian. -- CPU_ReadMem(4 bytes @ 0xE000EDF0) -- CPU_WriteMem(4 bytes @ 0xE000EDF0) -- CPU_ReadMem(4 bytes @ 0xE0002000)FPUnit: 8 code (BP) slots and 0 literal slots -- CPU_ReadMem(4 bytes @ 0xE000EDFC) -- CPU_WriteMem(4 bytes @ 0xE000EDFC) -- CPU_ReadMem(4 bytes @ 0xE0001000) -- CPU_WriteMem(4 bytes @ 0xE0001000) -- CPU_ReadMem(4 bytes @ 0xE000ED88) -- CPU_WriteMem(4 bytes @ 0xE000ED88)
 -- CPU_ReadMem(4 bytes @ 0xE000ED88) -- CPU_WriteMem(4 bytes @ 0xE000ED88)CoreSight components:ROMTbl[0] @ E00FD000 -- CPU_ReadMem(16 bytes @ 0xE00FD000) -- CPU_ReadMem(16 bytes @ 0xE00FEFF0) -- CPU_ReadMem(16 bytes @ 0xE00FEFE0)ROMTbl[0][0]: E00FE000, CID: B105100D, PID: 000BB4C8 ROM TableROMTbl[1] @ E00FE000 -- CPU_ReadMem(16 bytes @ 0xE00FE000) -- CPU_ReadMem(16 bytes @ 0xE00FFFF0) -- CPU_ReadMem(16 bytes @ 0xE00FFFE0)ROMTbl[1][0]: E00FF000, CID: B105100D, PID: 000BB4C7 ROM TableROMTbl[2] @ E00FF000
 -- CPU_ReadMem(16 bytes @ 0xE00FF000) -- CPU_ReadMem(16 bytes @ 0xE000EFF0) -- CPU_ReadMem(16 bytes @ 0xE000EFE0)ROMTbl[2][0]: E000E000, CID: B105E00D, PID: 000BB00C SCS-M7 -- CPU_ReadMem(16 bytes @ 0xE0001FF0) -- CPU_ReadMem(16 bytes @ 0xE0001FE0)ROMTbl[2][1]: E0001000, CID: B105E00D, PID: 000BB002 DWT -- CPU_ReadMem(16 bytes @ 0xE0002FF0) -- CPU_ReadMem(16 bytes @ 0xE0002FE0)ROMTbl[2][2]: E0002000, CID: B105E00D, PID: 000BB00E FPB-M7 -- CPU_ReadMem(16 bytes @ 0xE0000FF0)
 -- CPU_ReadMem(16 bytes @ 0xE0000FE0)ROMTbl[2][3]: E0000000, CID: B105E00D, PID: 000BB001 ITM -- CPU_ReadMem(16 bytes @ 0xE00FF010) -- CPU_ReadMem(16 bytes @ 0xE0041FF0) -- CPU_ReadMem(16 bytes @ 0xE0041FE0)ROMTbl[1][1]: E0041000, CID: B105900D, PID: 000BB975 ETM-M7 -- CPU_ReadMem(16 bytes @ 0xE00FE010) -- CPU_ReadMem(16 bytes @ 0xE0040FF0) -- CPU_ReadMem(16 bytes @ 0xE0040FE0)ROMTbl[0][1]: E0040000, CID: B105900D, PID: 000BB9A9 TPIU-M7 -- CPU_ReadMem(16 bytes @ 0xE00FD010)
 -- CPU_ReadMem(4 bytes @ 0xE000ED78)Cache: Separate I- and D-cache. (0211ms, 30518ms total)
T27EC 19648:328  -- CPU_WriteMem(4 bytes @ 0xE000ED84) -- CPU_ReadMem(4 bytes @ 0xE000ED80)I-Cache L1: 4 KB, 64 Sets, 32 Bytes/Line, 2-Way -- CPU_WriteMem(4 bytes @ 0xE000ED84) -- CPU_ReadMem(4 bytes @ 0xE000ED80)D-Cache L1: 4 KB, 32 Sets, 32 Bytes/Line, 4-Way >0x0D TIF> >0x21 TIF>  returns 0x5BA02477 (0217ms, 30524ms total)
T27EC 19648:545 JLINK_GetDLLVersion()  returns 63008 (0000ms, 30524ms total)
T27EC 19648:545 JLINK_CORE_GetFound()  returns 0xE0100FF (0000ms, 30524ms total)
T27EC 19648:545 JLINK_GetDebugInfo(0x100 = JLINKARM_ROM_TABLE_ADDR_INDEX) -- Value=0xE00FD000  returns 0x00 (0000ms, 30524ms total)
T27EC 19648:547 JLINK_GetDebugInfo(0x100 = JLINKARM_ROM_TABLE_ADDR_INDEX) -- Value=0xE00FD000  returns 0x00 (0000ms, 30524ms total)
T27EC 19648:547 JLINK_GetDebugInfo(0x101 = JLINKARM_DEBUG_INFO_ETM_ADDR_INDEX) -- Value=0xE0041000  returns 0x00 (0001ms, 30525ms total)
T27EC 19648:548 JLINK_ReadMemEx(0xE0041FD0, 0x0020 Bytes, ..., Flags = 0x02000004) -- CPU_ReadMem(32 bytes @ 0xE0041FD0) - Data: 04 00 00 00 00 00 00 00 00 00 00 00 00 00 00 00 ...  returns 0x20 (0000ms, 30525ms total)
T27EC 19648:548 JLINK_GetDebugInfo(0x102 = JLINKARM_DEBUG_INFO_MTB_ADDR_INDEX) -- Value=0x00000000  returns 0x00 (0000ms, 30525ms total)
T27EC 19648:548 JLINK_GetDebugInfo(0x103 = JLINKARM_DEBUG_INFO_TPIU_ADDR_INDEX) -- Value=0xE0040000  returns 0x00 (0000ms, 30525ms total)
T27EC 19648:548 JLINK_GetDebugInfo(0x104 = JLINKARM_DEBUG_INFO_ITM_ADDR_INDEX) -- Value=0xE0000000  returns 0x00 (0000ms, 30525ms total)
T27EC 19648:548 JLINK_GetDebugInfo(0x105 = JLINKARM_DEBUG_INFO_DWT_ADDR_INDEX) -- Value=0xE0001000  returns 0x00 (0000ms, 30525ms total)
T27EC 19648:548 JLINK_GetDebugInfo(0x106 = JLINKARM_DEBUG_INFO_FPB_ADDR_INDEX) -- Value=0xE0002000  returns 0x00 (0000ms, 30525ms total)
T27EC 19648:548 JLINK_GetDebugInfo(0x107 = JLINKARM_DEBUG_INFO_NVIC_ADDR_INDEX) -- Value=0xE000E000  returns 0x00 (0000ms, 30525ms total)
T27EC 19648:548 JLINK_GetDebugInfo(0x10C = JLINKARM_DEBUG_INFO_DBG_ADDR_INDEX) -- Value=0xE000EDF0  returns 0x00 (0000ms, 30525ms total)
T27EC 19648:548 JLINK_GetDebugInfo(0x01 = Unknown) -- Value=0x00000001  returns 0x00 (0000ms, 30525ms total)
T27EC 19648:548 JLINK_ReadMemU32(0xE000ED00, 0x0001 Items, ...) -- CPU_ReadMem(4 bytes @ 0xE000ED00) - Data: 71 C2 0F 41  returns 0x01 (0000ms, 30525ms total)
T27EC 19648:548 JLINK_GetDebugInfo(0x10F = JLINKARM_DEBUG_INFO_HAS_CORTEX_M_SECURITY_EXT_INDEX) -- Value=0x00000000  returns 0x00 (0000ms, 30525ms total)
T27EC 19648:548 JLINK_SetResetType(JLINKARM_CM3_RESET_TYPE_NORMAL)  returns JLINKARM_CM3_RESET_TYPE_NORMAL (0000ms, 30525ms total)
T27EC 19648:548 JLINK_Reset() -- CPU is running -- CPU_WriteMem(4 bytes @ 0xE000EDF0) -- CPU is running -- CPU_WriteMem(4 bytes @ 0xE000EDFC)Reset: Halt core after reset via DEMCR.VC_CORERESET. >0x35 TIF>Reset: Reset device via AIRCR.SYSRESETREQ. -- CPU is running -- CPU_WriteMem(4 bytes @ 0xE000ED0C) >0x0D TIF> >0x28 TIF> -- CPU_ReadMem(4 bytes @ 0xE000EDF0) -- CPU_ReadMem(4 bytes @ 0xE000EDF0) -- CPU is running -- CPU_WriteMem(4 bytes @ 0xE000EDF0) -- CPU is running
 -- CPU_WriteMem(4 bytes @ 0xE000EDFC) -- CPU_ReadMem(4 bytes @ 0xE000EDF0) -- CPU_WriteMem(4 bytes @ 0xE0002000) -- CPU_ReadMem(4 bytes @ 0xE000EDFC) -- CPU_ReadMem(4 bytes @ 0xE0001000) (0068ms, 30593ms total)
T27EC 19648:616 JLINK_Halt()  returns 0x00 (0000ms, 30593ms total)
T27EC 19648:616 JLINK_ReadMemU32(0xE000EDF0, 0x0001 Items, ...) -- CPU_ReadMem(4 bytes @ 0xE000EDF0) - Data: 03 00 03 00  returns 0x01 (0000ms, 30593ms total)
T27EC 19648:616 JLINK_WriteU32(0xE000EDF0, 0xA05F0003) -- CPU_WriteMem(4 bytes @ 0xE000EDF0)  returns 0x00 (0001ms, 30594ms total)
T27EC 19648:617 JLINK_WriteU32(0xE000EDFC, 0x01000000) -- CPU_WriteMem(4 bytes @ 0xE000EDFC)  returns 0x00 (0000ms, 30594ms total)
T27EC 19648:649 JLINK_GetHWStatus(...)  returns 0x00 (0000ms, 30594ms total)
T27EC 19648:657 JLINK_GetNumBPUnits(Type = 0xFFFFFF00)  returns 0x08 (0000ms, 30594ms total)
T27EC 19648:657 JLINK_GetNumBPUnits(Type = 0xF0)  returns 0x2000 (0000ms, 30594ms total)
T27EC 19648:657 JLINK_GetNumWPUnits()  returns 0x04 (0000ms, 30594ms total)
T27EC 19648:666 JLINK_GetSpeed()  returns 0x1770 (0000ms, 30594ms total)
T27EC 19648:672 JLINK_ReadMemU32(0xE000E004, 0x0001 Items, ...) -- CPU_ReadMem(4 bytes @ 0xE000E004) - Data: 03 00 00 00  returns 0x01 (0000ms, 30594ms total)
T27EC 19648:672 JLINK_ReadMemU32(0xE000E004, 0x0001 Items, ...) -- CPU_ReadMem(4 bytes @ 0xE000E004) - Data: 03 00 00 00  returns 0x01 (0000ms, 30594ms total)
T27EC 19648:672 JLINK_WriteMemEx(0xE0001000, 0x001C Bytes, ..., Flags = 0x02000004) - Data: 01 00 00 00 00 00 00 00 00 00 00 00 00 00 00 00 ... -- CPU_WriteMem(28 bytes @ 0xE0001000)  returns 0x1C (0001ms, 30595ms total)
T27EC 19648:673 JLINK_Halt()  returns 0x00 (0000ms, 30595ms total)
T27EC 19648:673 JLINK_IsHalted()  returns TRUE (0000ms, 30595ms total)
T27EC 19648:676 JLINK_WriteMem(0x20010000, 0x01A0 Bytes, ...) - Data: 00 BE 0A E0 0D 78 2D 06 68 40 08 24 40 00 00 D3 ... -- CPU_WriteMem(416 bytes @ 0x20010000)  returns 0x1A0 (0003ms, 30598ms total)
T27EC 19648:679 JLINK_WriteReg(R0, 0x08000000)  returns 0x00 (0000ms, 30598ms total)
T27EC 19648:679 JLINK_WriteReg(R1, 0x0CDFE600)  returns 0x00 (0000ms, 30598ms total)
T27EC 19648:679 JLINK_WriteReg(R2, 0x00000001)  returns 0x00 (0000ms, 30598ms total)
T27EC 19648:679 JLINK_WriteReg(R3, 0x00000000)  returns 0x00 (0000ms, 30598ms total)
T27EC 19648:679 JLINK_WriteReg(R4, 0x00000000)  returns 0x00 (0000ms, 30598ms total)
T27EC 19648:679 JLINK_WriteReg(R5, 0x00000000)  returns 0x00 (0000ms, 30598ms total)
T27EC 19648:679 JLINK_WriteReg(R6, 0x00000000)  returns 0x00 (0000ms, 30598ms total)
T27EC 19648:679 JLINK_WriteReg(R7, 0x00000000)  returns 0x00 (0000ms, 30598ms total)
T27EC 19648:679 JLINK_WriteReg(R8, 0x00000000)  returns 0x00 (0000ms, 30598ms total)
T27EC 19648:679 JLINK_WriteReg(R9, 0x2001019C)  returns 0x00 (0000ms, 30598ms total)
T27EC 19648:679 JLINK_WriteReg(R10, 0x00000000)  returns 0x00 (0000ms, 30598ms total)
T27EC 19648:679 JLINK_WriteReg(R11, 0x00000000)  returns 0x00 (0000ms, 30598ms total)
T27EC 19648:679 JLINK_WriteReg(R12, 0x00000000)  returns 0x00 (0000ms, 30598ms total)
T27EC 19648:679 JLINK_WriteReg(R13 (SP), 0x20011000)  returns 0x00 (0000ms, 30598ms total)
T27EC 19648:679 JLINK_WriteReg(R14, 0x20010001)  returns 0x00 (0000ms, 30598ms total)
T27EC 19648:679 JLINK_WriteReg(R15 (PC), 0x2001005A)  returns 0x00 (0000ms, 30598ms total)
T27EC 19648:679 JLINK_WriteReg(XPSR, 0x01000000)  returns 0x00 (0000ms, 30598ms total)
T27EC 19648:679 JLINK_WriteReg(MSP, 0x20011000)  returns 0x00 (0000ms, 30598ms total)
T27EC 19648:679 JLINK_WriteReg(PSP, 0x20011000)  returns 0x00 (0000ms, 30598ms total)
T27EC 19648:679 JLINK_WriteReg(CFBP, 0x00000000)  returns 0x00 (0000ms, 30598ms total)
T27EC 19648:679 JLINK_SetBPEx(Addr = 0x20010000, Type = 0xFFFFFFF2)  returns 0x00000001 (0000ms, 30598ms total)
T27EC 19648:679 JLINK_Go() -- CPU_WriteMem(4 bytes @ 0xE0002000) -- CPU_ReadMem(4 bytes @ 0xE0001000) -- CPU_WriteMem(4 bytes @ 0xE0002008) -- CPU_WriteMem(4 bytes @ 0xE000200C) -- CPU_WriteMem(4 bytes @ 0xE0002010) -- CPU_WriteMem(4 bytes @ 0xE0002014) -- CPU_WriteMem(4 bytes @ 0xE0002018) -- CPU_WriteMem(4 bytes @ 0xE000201C) -- CPU_WriteMem(4 bytes @ 0xE0002020) -- CPU_WriteMem(4 bytes @ 0xE0002024) -- CPU_WriteMem(4 bytes @ 0xE0001004) (0003ms, 30601ms total)
T27EC 19648:682 JLINK_IsHalted()  returns TRUE (0001ms, 30602ms total)
T27EC 19648:683 JLINK_ReadReg(R15 (PC))  returns 0x20010000 (0000ms, 30601ms total)
T27EC 19648:683 JLINK_ClrBPEx(BPHandle = 0x00000001)  returns 0x00 (0000ms, 30601ms total)
T27EC 19648:683 JLINK_ReadReg(R0)  returns 0x00000000 (0000ms, 30601ms total)
T27EC 19648:684 JLINK_WriteReg(R0, 0x08000000)  returns 0x00 (0000ms, 30601ms total)
T27EC 19648:684 JLINK_WriteReg(R1, 0x00008000)  returns 0x00 (0000ms, 30601ms total)
T27EC 19648:684 JLINK_WriteReg(R2, 0x000000FF)  returns 0x00 (0000ms, 30601ms total)
T27EC 19648:684 JLINK_WriteReg(R3, 0x00000000)  returns 0x00 (0000ms, 30601ms total)
T27EC 19648:684 JLINK_WriteReg(R4, 0x00000000)  returns 0x00 (0000ms, 30601ms total)
T27EC 19648:684 JLINK_WriteReg(R5, 0x00000000)  returns 0x00 (0000ms, 30601ms total)
T27EC 19648:684 JLINK_WriteReg(R6, 0x00000000)  returns 0x00 (0000ms, 30601ms total)
T27EC 19648:684 JLINK_WriteReg(R7, 0x00000000)  returns 0x00 (0000ms, 30601ms total)
T27EC 19648:684 JLINK_WriteReg(R8, 0x00000000)  returns 0x00 (0000ms, 30601ms total)
T27EC 19648:684 JLINK_WriteReg(R9, 0x2001019C)  returns 0x00 (0000ms, 30601ms total)
T27EC 19648:684 JLINK_WriteReg(R10, 0x00000000)  returns 0x00 (0000ms, 30601ms total)
T27EC 19648:684 JLINK_WriteReg(R11, 0x00000000)  returns 0x00 (0000ms, 30601ms total)
T27EC 19648:684 JLINK_WriteReg(R12, 0x00000000)  returns 0x00 (0000ms, 30601ms total)
T27EC 19648:684 JLINK_WriteReg(R13 (SP), 0x20011000)  returns 0x00 (0000ms, 30601ms total)
T27EC 19648:684 JLINK_WriteReg(R14, 0x20010001)  returns 0x00 (0000ms, 30601ms total)
T27EC 19648:684 JLINK_WriteReg(R15 (PC), 0x20010020)  returns 0x00 (0000ms, 30601ms total)
T27EC 19648:684 JLINK_WriteReg(XPSR, 0x01000000)  returns 0x00 (0000ms, 30601ms total)
T27EC 19648:684 JLINK_WriteReg(MSP, 0x20011000)  returns 0x00 (0000ms, 30601ms total)
T27EC 19648:684 JLINK_WriteReg(PSP, 0x20011000)  returns 0x00 (0000ms, 30601ms total)
T27EC 19648:684 JLINK_WriteReg(CFBP, 0x00000000)  returns 0x00 (0000ms, 30601ms total)
T27EC 19648:684 JLINK_SetBPEx(Addr = 0x20010000, Type = 0xFFFFFFF2)  returns 0x00000002 (0000ms, 30601ms total)
T27EC 19648:684 JLINK_Go() -- CPU_WriteMem(4 bytes @ 0xE0002000) -- CPU_ReadMem(4 bytes @ 0xE0001000) (0001ms, 30602ms total)
T27EC 19648:685 JLINK_IsHalted()  returns TRUE (0002ms, 30604ms total)
T27EC 19648:687 JLINK_ReadReg(R15 (PC))  returns 0x20010000 (0000ms, 30602ms total)
T27EC 19648:687 JLINK_ClrBPEx(BPHandle = 0x00000002)  returns 0x00 (0000ms, 30602ms total)
T27EC 19648:687 JLINK_ReadReg(R0)  returns 0x00000001 (0000ms, 30602ms total)
T27EC 19648:687 JLINK_WriteReg(R0, 0x08000000)  returns 0x00 (0000ms, 30602ms total)
T27EC 19648:687 JLINK_WriteReg(R1, 0x00008000)  returns 0x00 (0000ms, 30602ms total)
T27EC 19648:687 JLINK_WriteReg(R2, 0x000000FF)  returns 0x00 (0000ms, 30602ms total)
T27EC 19648:687 JLINK_WriteReg(R3, 0x00000000)  returns 0x00 (0000ms, 30602ms total)
T27EC 19648:687 JLINK_WriteReg(R4, 0x00000000)  returns 0x00 (0000ms, 30602ms total)
T27EC 19648:687 JLINK_WriteReg(R5, 0x00000000)  returns 0x00 (0000ms, 30602ms total)
T27EC 19648:687 JLINK_WriteReg(R6, 0x00000000)  returns 0x00 (0000ms, 30602ms total)
T27EC 19648:687 JLINK_WriteReg(R7, 0x00000000)  returns 0x00 (0000ms, 30602ms total)
T27EC 19648:687 JLINK_WriteReg(R8, 0x00000000)  returns 0x00 (0000ms, 30602ms total)
T27EC 19648:687 JLINK_WriteReg(R9, 0x2001019C)  returns 0x00 (0000ms, 30602ms total)
T27EC 19648:687 JLINK_WriteReg(R10, 0x00000000)  returns 0x00 (0000ms, 30602ms total)
T27EC 19648:687 JLINK_WriteReg(R11, 0x00000000)  returns 0x00 (0000ms, 30602ms total)
T27EC 19648:687 JLINK_WriteReg(R12, 0x00000000)  returns 0x00 (0000ms, 30602ms total)
T27EC 19648:687 JLINK_WriteReg(R13 (SP), 0x20011000)  returns 0x00 (0000ms, 30602ms total)
T27EC 19648:687 JLINK_WriteReg(R14, 0x20010001)  returns 0x00 (0000ms, 30602ms total)
T27EC 19648:687 JLINK_WriteReg(R15 (PC), 0x200100C2)  returns 0x00 (0000ms, 30602ms total)
T27EC 19648:687 JLINK_WriteReg(XPSR, 0x01000000)  returns 0x00 (0000ms, 30602ms total)
T27EC 19648:687 JLINK_WriteReg(MSP, 0x20011000)  returns 0x00 (0000ms, 30602ms total)
T27EC 19648:687 JLINK_WriteReg(PSP, 0x20011000)  returns 0x00 (0000ms, 30602ms total)
T27EC 19648:687 JLINK_WriteReg(CFBP, 0x00000000)  returns 0x00 (0000ms, 30602ms total)
T27EC 19648:687 JLINK_SetBPEx(Addr = 0x20010000, Type = 0xFFFFFFF2)  returns 0x00000003 (0000ms, 30602ms total)
T27EC 19648:687 JLINK_Go() -- CPU_WriteMem(4 bytes @ 0xE0002000) -- CPU_ReadMem(4 bytes @ 0xE0001000) (0001ms, 30603ms total)
T27EC 19648:688 JLINK_IsHalted()  returns FALSE (0001ms, 30604ms total)
T27EC 19648:720 JLINK_IsHalted()  returns FALSE (0000ms, 30603ms total)
T27EC 19648:722 JLINK_IsHalted()  returns FALSE (0000ms, 30603ms total)
T27EC 19648:724 JLINK_IsHalted()  returns FALSE (0000ms, 30603ms total)
T27EC 19648:726 JLINK_IsHalted()  returns FALSE (0000ms, 30603ms total)
T27EC 19648:728 JLINK_IsHalted()  returns FALSE (0000ms, 30603ms total)
T27EC 19648:730 JLINK_IsHalted()  returns FALSE (0000ms, 30603ms total)
T27EC 19648:732 JLINK_IsHalted()  returns FALSE (0000ms, 30603ms total)
T27EC 19648:734 JLINK_IsHalted()  returns FALSE (0000ms, 30603ms total)
T27EC 19648:736 JLINK_IsHalted()  returns FALSE (0000ms, 30603ms total)
T27EC 19648:738 JLINK_IsHalted()  returns FALSE (0000ms, 30603ms total)
T27EC 19648:740 JLINK_IsHalted()  returns FALSE (0000ms, 30603ms total)
T27EC 19648:742 JLINK_IsHalted()  returns FALSE (0000ms, 30603ms total)
T27EC 19648:744 JLINK_IsHalted()  returns FALSE (0000ms, 30603ms total)
T27EC 19648:746 JLINK_IsHalted()  returns FALSE (0000ms, 30603ms total)
T27EC 19648:748 JLINK_IsHalted()  returns FALSE (0000ms, 30603ms total)
T27EC 19648:750 JLINK_IsHalted()  returns FALSE (0000ms, 30603ms total)
T27EC 19648:752 JLINK_IsHalted()  returns FALSE (0000ms, 30603ms total)
T27EC 19648:754 JLINK_IsHalted()  returns FALSE (0000ms, 30603ms total)
T27EC 19648:756 JLINK_IsHalted()  returns FALSE (0000ms, 30603ms total)
T27EC 19648:758 JLINK_IsHalted()  returns FALSE (0000ms, 30603ms total)
T27EC 19648:760 JLINK_IsHalted()  returns FALSE (0000ms, 30603ms total)
T27EC 19648:762 JLINK_IsHalted()  returns FALSE (0000ms, 30603ms total)
T27EC 19648:764 JLINK_IsHalted()  returns FALSE (0000ms, 30603ms total)
T27EC 19648:766 JLINK_IsHalted()  returns FALSE (0000ms, 30603ms total)
T27EC 19648:768 JLINK_IsHalted()  returns FALSE (0000ms, 30603ms total)
T27EC 19648:770 JLINK_IsHalted()  returns FALSE (0000ms, 30603ms total)
T27EC 19648:772 JLINK_IsHalted()  returns FALSE (0000ms, 30603ms total)
T27EC 19648:774 JLINK_IsHalted()  returns FALSE (0000ms, 30603ms total)
T27EC 19648:776 JLINK_IsHalted()  returns FALSE (0000ms, 30603ms total)
T27EC 19648:778 JLINK_IsHalted()  returns FALSE (0000ms, 30603ms total)
T27EC 19648:780 JLINK_IsHalted()  returns FALSE (0000ms, 30603ms total)
T27EC 19648:782 JLINK_IsHalted()  returns FALSE (0000ms, 30603ms total)
T27EC 19648:784 JLINK_IsHalted()  returns FALSE (0000ms, 30603ms total)
T27EC 19648:786 JLINK_IsHalted()  returns FALSE (0000ms, 30603ms total)
T27EC 19648:788 JLINK_IsHalted()  returns FALSE (0000ms, 30603ms total)
T27EC 19648:790 JLINK_IsHalted()  returns FALSE (0000ms, 30603ms total)
T27EC 19648:792 JLINK_IsHalted()  returns FALSE (0000ms, 30603ms total)
T27EC 19648:794 JLINK_IsHalted()  returns FALSE (0000ms, 30603ms total)
T27EC 19648:803 JLINK_IsHalted()  returns FALSE (0000ms, 30603ms total)
T27EC 19648:805 JLINK_IsHalted()  returns FALSE (0000ms, 30603ms total)
T27EC 19648:807 JLINK_IsHalted()  returns FALSE (0000ms, 30603ms total)
T27EC 19648:818 JLINK_IsHalted()  returns FALSE (0000ms, 30603ms total)
T27EC 19648:820 JLINK_IsHalted()  returns FALSE (0000ms, 30603ms total)
T27EC 19648:822 JLINK_IsHalted()  returns FALSE (0000ms, 30603ms total)
T27EC 19648:841 JLINK_IsHalted()  returns FALSE (0000ms, 30603ms total)
T27EC 19648:843 JLINK_IsHalted()  returns FALSE (0000ms, 30603ms total)
T27EC 19648:845 JLINK_IsHalted()  returns FALSE (0000ms, 30603ms total)
T27EC 19648:847 JLINK_IsHalted()  returns FALSE (0000ms, 30603ms total)
T27EC 19648:849 JLINK_IsHalted()  returns FALSE (0000ms, 30603ms total)
T27EC 19648:851 JLINK_IsHalted()  returns FALSE (0000ms, 30603ms total)
T27EC 19648:860 JLINK_IsHalted()  returns FALSE (0000ms, 30603ms total)
T27EC 19648:862 JLINK_IsHalted()  returns FALSE (0000ms, 30603ms total)
T27EC 19648:864 JLINK_IsHalted()  returns FALSE (0000ms, 30603ms total)
T27EC 19648:866 JLINK_IsHalted()  returns FALSE (0000ms, 30603ms total)
T27EC 19648:868 JLINK_IsHalted()  returns FALSE (0000ms, 30603ms total)
T27EC 19648:870 JLINK_IsHalted()  returns FALSE (0000ms, 30603ms total)
T27EC 19648:872 JLINK_IsHalted()  returns FALSE (0000ms, 30603ms total)
T27EC 19648:874 JLINK_IsHalted()  returns FALSE (0000ms, 30603ms total)
T27EC 19648:876 JLINK_IsHalted()  returns FALSE (0000ms, 30603ms total)
T27EC 19648:878 JLINK_IsHalted()  returns FALSE (0000ms, 30603ms total)
T27EC 19648:880 JLINK_IsHalted()  returns FALSE (0000ms, 30603ms total)
T27EC 19648:882 JLINK_IsHalted()  returns FALSE (0000ms, 30603ms total)
T27EC 19648:884 JLINK_IsHalted()  returns FALSE (0000ms, 30603ms total)
T27EC 19648:886 JLINK_IsHalted()  returns FALSE (0000ms, 30603ms total)
T27EC 19648:888 JLINK_IsHalted()  returns FALSE (0000ms, 30603ms total)
T27EC 19648:890 JLINK_IsHalted()  returns FALSE (0000ms, 30603ms total)
T27EC 19648:892 JLINK_IsHalted()  returns FALSE (0000ms, 30603ms total)
T27EC 19648:894 JLINK_IsHalted()  returns FALSE (0000ms, 30603ms total)
T27EC 19648:896 JLINK_IsHalted()  returns FALSE (0000ms, 30603ms total)
T27EC 19648:898 JLINK_IsHalted()  returns FALSE (0000ms, 30603ms total)
T27EC 19648:900 JLINK_IsHalted()  returns FALSE (0000ms, 30603ms total)
T27EC 19648:902 JLINK_IsHalted()  returns FALSE (0000ms, 30603ms total)
T27EC 19648:904 JLINK_IsHalted()  returns FALSE (0000ms, 30603ms total)
T27EC 19648:906 JLINK_IsHalted()  returns FALSE (0000ms, 30603ms total)
T27EC 19648:908 JLINK_IsHalted()  returns FALSE (0000ms, 30603ms total)
T27EC 19648:928 JLINK_IsHalted()  returns FALSE (0000ms, 30603ms total)
T27EC 19648:930 JLINK_IsHalted()  returns FALSE (0000ms, 30603ms total)
T27EC 19648:932 JLINK_IsHalted()  returns FALSE (0000ms, 30603ms total)
T27EC 19648:934 JLINK_IsHalted()  returns FALSE (0000ms, 30603ms total)
T27EC 19648:936 JLINK_IsHalted()  returns FALSE (0000ms, 30603ms total)
T27EC 19648:938 JLINK_IsHalted()  returns FALSE (0000ms, 30603ms total)
T27EC 19648:940 JLINK_IsHalted()  returns FALSE (0000ms, 30603ms total)
T27EC 19648:942 JLINK_IsHalted()  returns FALSE (0000ms, 30603ms total)
T27EC 19648:944 JLINK_IsHalted()  returns FALSE (0000ms, 30603ms total)
T27EC 19648:946 JLINK_IsHalted()  returns FALSE (0000ms, 30603ms total)
T27EC 19648:962 JLINK_IsHalted()  returns FALSE (0000ms, 30603ms total)
T27EC 19648:964 JLINK_IsHalted()  returns FALSE (0000ms, 30603ms total)
T27EC 19648:980 JLINK_IsHalted()  returns FALSE (0000ms, 30603ms total)
T27EC 19648:982 JLINK_IsHalted()  returns FALSE (0000ms, 30603ms total)
T27EC 19648:984 JLINK_IsHalted()  returns FALSE (0000ms, 30603ms total)
T27EC 19648:986 JLINK_IsHalted()  returns FALSE (0000ms, 30603ms total)
T27EC 19648:988 JLINK_IsHalted()  returns FALSE (0000ms, 30603ms total)
T27EC 19648:990 JLINK_IsHalted()  returns FALSE (0000ms, 30603ms total)
T27EC 19648:992 JLINK_IsHalted()  returns FALSE (0000ms, 30603ms total)
T27EC 19648:994 JLINK_IsHalted()  returns FALSE (0000ms, 30603ms total)
T27EC 19648:996 JLINK_IsHalted()  returns FALSE (0000ms, 30603ms total)
T27EC 19648:998 JLINK_IsHalted()  returns FALSE (0000ms, 30603ms total)
T27EC 19649:000 JLINK_IsHalted()  returns FALSE (0000ms, 30603ms total)
T27EC 19649:002 JLINK_IsHalted()  returns FALSE (0000ms, 30603ms total)
T27EC 19649:004 JLINK_IsHalted()  returns FALSE (0000ms, 30603ms total)
T27EC 19649:006 JLINK_IsHalted()  returns FALSE (0000ms, 30603ms total)
T27EC 19649:008 JLINK_IsHalted()  returns FALSE (0000ms, 30603ms total)
T27EC 19649:010 JLINK_IsHalted()  returns FALSE (0000ms, 30603ms total)
T27EC 19649:012 JLINK_IsHalted()  returns FALSE (0000ms, 30603ms total)
T27EC 19649:014 JLINK_IsHalted()  returns FALSE (0000ms, 30603ms total)
T27EC 19649:016 JLINK_IsHalted()  returns FALSE (0000ms, 30603ms total)
T27EC 19649:018 JLINK_IsHalted()  returns FALSE (0000ms, 30603ms total)
T27EC 19649:020 JLINK_IsHalted()  returns FALSE (0000ms, 30603ms total)
T27EC 19649:022 JLINK_IsHalted()  returns FALSE (0000ms, 30603ms total)
T27EC 19649:024 JLINK_IsHalted()  returns FALSE (0000ms, 30603ms total)
T27EC 19649:026 JLINK_IsHalted()  returns FALSE (0000ms, 30603ms total)
T27EC 19649:028 JLINK_IsHalted()  returns FALSE (0000ms, 30603ms total)
T27EC 19649:030 JLINK_IsHalted()  returns FALSE (0000ms, 30603ms total)
T27EC 19649:040 JLINK_IsHalted()  returns TRUE (0002ms, 30605ms total)
T27EC 19649:042 JLINK_ReadReg(R15 (PC))  returns 0x20010000 (0000ms, 30603ms total)
T27EC 19649:042 JLINK_ClrBPEx(BPHandle = 0x00000003)  returns 0x00 (0000ms, 30603ms total)
T27EC 19649:042 JLINK_ReadReg(R0)  returns 0x00000000 (0000ms, 30603ms total)
T27EC 19649:043 JLINK_WriteReg(R0, 0x00000001)  returns 0x00 (0000ms, 30603ms total)
T27EC 19649:043 JLINK_WriteReg(R1, 0x00008000)  returns 0x00 (0000ms, 30603ms total)
T27EC 19649:043 JLINK_WriteReg(R2, 0x000000FF)  returns 0x00 (0000ms, 30603ms total)
T27EC 19649:043 JLINK_WriteReg(R3, 0x00000000)  returns 0x00 (0000ms, 30603ms total)
T27EC 19649:043 JLINK_WriteReg(R4, 0x00000000)  returns 0x00 (0000ms, 30603ms total)
T27EC 19649:043 JLINK_WriteReg(R5, 0x00000000)  returns 0x00 (0000ms, 30603ms total)
T27EC 19649:043 JLINK_WriteReg(R6, 0x00000000)  returns 0x00 (0000ms, 30603ms total)
T27EC 19649:043 JLINK_WriteReg(R7, 0x00000000)  returns 0x00 (0000ms, 30603ms total)
T27EC 19649:043 JLINK_WriteReg(R8, 0x00000000)  returns 0x00 (0000ms, 30603ms total)
T27EC 19649:043 JLINK_WriteReg(R9, 0x2001019C)  returns 0x00 (0000ms, 30603ms total)
T27EC 19649:043 JLINK_WriteReg(R10, 0x00000000)  returns 0x00 (0000ms, 30603ms total)
T27EC 19649:043 JLINK_WriteReg(R11, 0x00000000)  returns 0x00 (0000ms, 30603ms total)
T27EC 19649:043 JLINK_WriteReg(R12, 0x00000000)  returns 0x00 (0000ms, 30603ms total)
T27EC 19649:043 JLINK_WriteReg(R13 (SP), 0x20011000)  returns 0x00 (0000ms, 30603ms total)
T27EC 19649:043 JLINK_WriteReg(R14, 0x20010001)  returns 0x00 (0000ms, 30603ms total)
T27EC 19649:043 JLINK_WriteReg(R15 (PC), 0x20010088)  returns 0x00 (0000ms, 30603ms total)
T27EC 19649:043 JLINK_WriteReg(XPSR, 0x01000000)  returns 0x00 (0000ms, 30603ms total)
T27EC 19649:044 JLINK_WriteReg(MSP, 0x20011000)  returns 0x00 (0000ms, 30604ms total)
T27EC 19649:044 JLINK_WriteReg(PSP, 0x20011000)  returns 0x00 (0000ms, 30604ms total)
T27EC 19649:044 JLINK_WriteReg(CFBP, 0x00000000)  returns 0x00 (0000ms, 30604ms total)
T27EC 19649:044 JLINK_SetBPEx(Addr = 0x20010000, Type = 0xFFFFFFF2)  returns 0x00000004 (0000ms, 30604ms total)
T27EC 19649:044 JLINK_Go() -- CPU_WriteMem(4 bytes @ 0xE0002000) -- CPU_ReadMem(4 bytes @ 0xE0001000) (0002ms, 30606ms total)
T27EC 19649:046 JLINK_IsHalted()  returns TRUE (0002ms, 30608ms total)
T27EC 19649:048 JLINK_ReadReg(R15 (PC))  returns 0x20010000 (0000ms, 30606ms total)
T27EC 19649:048 JLINK_ClrBPEx(BPHandle = 0x00000004)  returns 0x00 (0000ms, 30606ms total)
T27EC 19649:048 JLINK_ReadReg(R0)  returns 0x00000000 (0000ms, 30606ms total)
T27EC 19649:116 JLINK_WriteMem(0x20010000, 0x01A0 Bytes, ...) - Data: 00 BE 0A E0 0D 78 2D 06 68 40 08 24 40 00 00 D3 ... -- CPU_WriteMem(416 bytes @ 0x20010000)  returns 0x1A0 (0002ms, 30608ms total)
T27EC 19649:118 JLINK_WriteReg(R0, 0x08000000)  returns 0x00 (0000ms, 30608ms total)
T27EC 19649:118 JLINK_WriteReg(R1, 0x0CDFE600)  returns 0x00 (0000ms, 30608ms total)
T27EC 19649:118 JLINK_WriteReg(R2, 0x00000002)  returns 0x00 (0000ms, 30608ms total)
T27EC 19649:118 JLINK_WriteReg(R3, 0x00000000)  returns 0x00 (0000ms, 30608ms total)
T27EC 19649:118 JLINK_WriteReg(R4, 0x00000000)  returns 0x00 (0000ms, 30608ms total)
T27EC 19649:118 JLINK_WriteReg(R5, 0x00000000)  returns 0x00 (0000ms, 30608ms total)
T27EC 19649:118 JLINK_WriteReg(R6, 0x00000000)  returns 0x00 (0000ms, 30608ms total)
T27EC 19649:118 JLINK_WriteReg(R7, 0x00000000)  returns 0x00 (0000ms, 30608ms total)
T27EC 19649:118 JLINK_WriteReg(R8, 0x00000000)  returns 0x00 (0000ms, 30608ms total)
T27EC 19649:118 JLINK_WriteReg(R9, 0x2001019C)  returns 0x00 (0000ms, 30608ms total)
T27EC 19649:118 JLINK_WriteReg(R10, 0x00000000)  returns 0x00 (0000ms, 30608ms total)
T27EC 19649:118 JLINK_WriteReg(R11, 0x00000000)  returns 0x00 (0000ms, 30608ms total)
T27EC 19649:118 JLINK_WriteReg(R12, 0x00000000)  returns 0x00 (0000ms, 30608ms total)
T27EC 19649:118 JLINK_WriteReg(R13 (SP), 0x20011000)  returns 0x00 (0000ms, 30608ms total)
T27EC 19649:118 JLINK_WriteReg(R14, 0x20010001)  returns 0x00 (0000ms, 30608ms total)
T27EC 19649:118 JLINK_WriteReg(R15 (PC), 0x2001005A)  returns 0x00 (0000ms, 30608ms total)
T27EC 19649:118 JLINK_WriteReg(XPSR, 0x01000000)  returns 0x00 (0000ms, 30608ms total)
T27EC 19649:118 JLINK_WriteReg(MSP, 0x20011000)  returns 0x00 (0000ms, 30608ms total)
T27EC 19649:118 JLINK_WriteReg(PSP, 0x20011000)  returns 0x00 (0000ms, 30608ms total)
T27EC 19649:118 JLINK_WriteReg(CFBP, 0x00000000)  returns 0x00 (0001ms, 30609ms total)
T27EC 19649:119 JLINK_SetBPEx(Addr = 0x20010000, Type = 0xFFFFFFF2)  returns 0x00000005 (0000ms, 30609ms total)
T27EC 19649:119 JLINK_Go() -- CPU_WriteMem(4 bytes @ 0xE0002000) -- CPU_ReadMem(4 bytes @ 0xE0001000) (0001ms, 30610ms total)
T27EC 19649:120 JLINK_IsHalted()  returns TRUE (0002ms, 30612ms total)
T27EC 19649:122 JLINK_ReadReg(R15 (PC))  returns 0x20010000 (0000ms, 30610ms total)
T27EC 19649:122 JLINK_ClrBPEx(BPHandle = 0x00000005)  returns 0x00 (0000ms, 30610ms total)
T27EC 19649:122 JLINK_ReadReg(R0)  returns 0x00000000 (0000ms, 30610ms total)
T27EC 19649:123 JLINK_WriteMem(0x200101A0, 0x0260 Bytes, ...) - Data: 28 16 00 20 DD 01 00 08 E5 01 00 08 E7 01 00 08 ... -- CPU_WriteMem(608 bytes @ 0x200101A0)  returns 0x260 (0003ms, 30613ms total)
T27EC 19649:126 JLINK_WriteMem(0x20010400, 0x01A0 Bytes, ...) - Data: 4F 46 22 46 01 20 00 21 00 F0 20 F8 17 EB 00 09 ... -- CPU_WriteMem(416 bytes @ 0x20010400)  returns 0x1A0 (0002ms, 30615ms total)
T27EC 19649:128 JLINK_WriteReg(R0, 0x08000000)  returns 0x00 (0000ms, 30615ms total)
T27EC 19649:128 JLINK_WriteReg(R1, 0x00000400)  returns 0x00 (0000ms, 30615ms total)
T27EC 19649:128 JLINK_WriteReg(R2, 0x200101A0)  returns 0x00 (0000ms, 30615ms total)
T27EC 19649:128 JLINK_WriteReg(R3, 0x00000000)  returns 0x00 (0000ms, 30615ms total)
T27EC 19649:128 JLINK_WriteReg(R4, 0x00000000)  returns 0x00 (0000ms, 30615ms total)
T27EC 19649:128 JLINK_WriteReg(R5, 0x00000000)  returns 0x00 (0000ms, 30615ms total)
T27EC 19649:128 JLINK_WriteReg(R6, 0x00000000)  returns 0x00 (0000ms, 30615ms total)
T27EC 19649:128 JLINK_WriteReg(R7, 0x00000000)  returns 0x00 (0000ms, 30615ms total)
T27EC 19649:128 JLINK_WriteReg(R8, 0x00000000)  returns 0x00 (0000ms, 30615ms total)
T27EC 19649:128 JLINK_WriteReg(R9, 0x2001019C)  returns 0x00 (0000ms, 30615ms total)
T27EC 19649:128 JLINK_WriteReg(R10, 0x00000000)  returns 0x00 (0000ms, 30615ms total)
T27EC 19649:128 JLINK_WriteReg(R11, 0x00000000)  returns 0x00 (0000ms, 30615ms total)
T27EC 19649:128 JLINK_WriteReg(R12, 0x00000000)  returns 0x00 (0000ms, 30615ms total)
T27EC 19649:128 JLINK_WriteReg(R13 (SP), 0x20011000)  returns 0x00 (0000ms, 30615ms total)
T27EC 19649:128 JLINK_WriteReg(R14, 0x20010001)  returns 0x00 (0000ms, 30615ms total)
T27EC 19649:128 JLINK_WriteReg(R15 (PC), 0x20010112)  returns 0x00 (0001ms, 30616ms total)
T27EC 19649:129 JLINK_WriteReg(XPSR, 0x01000000)  returns 0x00 (0000ms, 30616ms total)
T27EC 19649:129 JLINK_WriteReg(MSP, 0x20011000)  returns 0x00 (0000ms, 30616ms total)
T27EC 19649:129 JLINK_WriteReg(PSP, 0x20011000)  returns 0x00 (0000ms, 30616ms total)
T27EC 19649:129 JLINK_WriteReg(CFBP, 0x00000000)  returns 0x00 (0000ms, 30616ms total)
T27EC 19649:129 JLINK_SetBPEx(Addr = 0x20010000, Type = 0xFFFFFFF2)  returns 0x00000006 (0000ms, 30616ms total)
T27EC 19649:129 JLINK_Go() -- CPU_WriteMem(4 bytes @ 0xE0002000) -- CPU_ReadMem(4 bytes @ 0xE0001000) (0001ms, 30617ms total)
T27EC 19649:130 JLINK_IsHalted()  returns FALSE (0001ms, 30618ms total)
T27EC 19649:147 JLINK_IsHalted()  returns TRUE (0001ms, 30618ms total)
T27EC 19649:148 JLINK_ReadReg(R15 (PC))  returns 0x20010000 (0000ms, 30617ms total)
T27EC 19649:148 JLINK_ClrBPEx(BPHandle = 0x00000006)  returns 0x00 (0000ms, 30617ms total)
T27EC 19649:148 JLINK_ReadReg(R0)  returns 0x00000000 (0000ms, 30617ms total)
T27EC 19649:149 JLINK_WriteMem(0x200101A0, 0x0260 Bytes, ...) - Data: 8A 68 22 F0 40 52 8A 60 01 68 8A 68 22 F0 02 02 ... -- CPU_WriteMem(608 bytes @ 0x200101A0)  returns 0x260 (0003ms, 30620ms total)
T27EC 19649:152 JLINK_WriteMem(0x20010400, 0x01A0 Bytes, ...) - Data: 2D E9 FF 4F 82 46 14 46 03 20 89 46 00 25 A0 EB ... -- CPU_WriteMem(416 bytes @ 0x20010400)  returns 0x1A0 (0002ms, 30622ms total)
T27EC 19649:154 JLINK_WriteReg(R0, 0x08000400)  returns 0x00 (0000ms, 30622ms total)
T27EC 19649:154 JLINK_WriteReg(R1, 0x00000400)  returns 0x00 (0000ms, 30622ms total)
T27EC 19649:154 JLINK_WriteReg(R2, 0x200101A0)  returns 0x00 (0000ms, 30622ms total)
T27EC 19649:154 JLINK_WriteReg(R3, 0x00000000)  returns 0x00 (0000ms, 30622ms total)
T27EC 19649:154 JLINK_WriteReg(R4, 0x00000000)  returns 0x00 (0000ms, 30622ms total)
T27EC 19649:154 JLINK_WriteReg(R5, 0x00000000)  returns 0x00 (0000ms, 30622ms total)
T27EC 19649:154 JLINK_WriteReg(R6, 0x00000000)  returns 0x00 (0000ms, 30622ms total)
T27EC 19649:154 JLINK_WriteReg(R7, 0x00000000)  returns 0x00 (0000ms, 30622ms total)
T27EC 19649:154 JLINK_WriteReg(R8, 0x00000000)  returns 0x00 (0000ms, 30622ms total)
T27EC 19649:154 JLINK_WriteReg(R9, 0x2001019C)  returns 0x00 (0000ms, 30622ms total)
T27EC 19649:154 JLINK_WriteReg(R10, 0x00000000)  returns 0x00 (0000ms, 30622ms total)
T27EC 19649:154 JLINK_WriteReg(R11, 0x00000000)  returns 0x00 (0000ms, 30622ms total)
T27EC 19649:154 JLINK_WriteReg(R12, 0x00000000)  returns 0x00 (0000ms, 30622ms total)
T27EC 19649:154 JLINK_WriteReg(R13 (SP), 0x20011000)  returns 0x00 (0000ms, 30622ms total)
T27EC 19649:154 JLINK_WriteReg(R14, 0x20010001)  returns 0x00 (0000ms, 30622ms total)
T27EC 19649:154 JLINK_WriteReg(R15 (PC), 0x20010112)  returns 0x00 (0000ms, 30622ms total)
T27EC 19649:154 JLINK_WriteReg(XPSR, 0x01000000)  returns 0x00 (0000ms, 30622ms total)
T27EC 19649:154 JLINK_WriteReg(MSP, 0x20011000)  returns 0x00 (0000ms, 30622ms total)
T27EC 19649:154 JLINK_WriteReg(PSP, 0x20011000)  returns 0x00 (0000ms, 30622ms total)
T27EC 19649:154 JLINK_WriteReg(CFBP, 0x00000000)  returns 0x00 (0000ms, 30622ms total)
T27EC 19649:154 JLINK_SetBPEx(Addr = 0x20010000, Type = 0xFFFFFFF2)  returns 0x00000007 (0000ms, 30622ms total)
T27EC 19649:154 JLINK_Go() -- CPU_WriteMem(4 bytes @ 0xE0002000) -- CPU_ReadMem(4 bytes @ 0xE0001000) (0002ms, 30624ms total)
T27EC 19649:156 JLINK_IsHalted()  returns FALSE (0000ms, 30624ms total)
T27EC 19649:162 JLINK_IsHalted()  returns TRUE (0001ms, 30625ms total)
T27EC 19649:163 JLINK_ReadReg(R15 (PC))  returns 0x20010000 (0000ms, 30624ms total)
T27EC 19649:163 JLINK_ClrBPEx(BPHandle = 0x00000007)  returns 0x00 (0000ms, 30624ms total)
T27EC 19649:164 JLINK_ReadReg(R0)  returns 0x00000000 (0000ms, 30624ms total)
T27EC 19649:164 JLINK_WriteMem(0x200101A0, 0x0260 Bytes, ...) - Data: 18 68 15 4C 00 EB 80 01 01 EB C0 00 04 EB 80 00 ... -- CPU_WriteMem(608 bytes @ 0x200101A0)  returns 0x260 (0003ms, 30627ms total)
T27EC 19649:167 JLINK_WriteMem(0x20010400, 0x01A0 Bytes, ...) - Data: 09 4A 84 23 01 29 03 EB C0 10 11 68 0B 58 08 D0 ... -- CPU_WriteMem(416 bytes @ 0x20010400)  returns 0x1A0 (0002ms, 30629ms total)
T27EC 19649:169 JLINK_WriteReg(R0, 0x08000800)  returns 0x00 (0000ms, 30629ms total)
T27EC 19649:169 JLINK_WriteReg(R1, 0x00000400)  returns 0x00 (0000ms, 30629ms total)
T27EC 19649:169 JLINK_WriteReg(R2, 0x200101A0)  returns 0x00 (0000ms, 30629ms total)
T27EC 19649:169 JLINK_WriteReg(R3, 0x00000000)  returns 0x00 (0000ms, 30629ms total)
T27EC 19649:169 JLINK_WriteReg(R4, 0x00000000)  returns 0x00 (0000ms, 30629ms total)
T27EC 19649:169 JLINK_WriteReg(R5, 0x00000000)  returns 0x00 (0000ms, 30629ms total)
T27EC 19649:169 JLINK_WriteReg(R6, 0x00000000)  returns 0x00 (0000ms, 30629ms total)
T27EC 19649:169 JLINK_WriteReg(R7, 0x00000000)  returns 0x00 (0000ms, 30629ms total)
T27EC 19649:169 JLINK_WriteReg(R8, 0x00000000)  returns 0x00 (0000ms, 30629ms total)
T27EC 19649:169 JLINK_WriteReg(R9, 0x2001019C)  returns 0x00 (0000ms, 30629ms total)
T27EC 19649:169 JLINK_WriteReg(R10, 0x00000000)  returns 0x00 (0000ms, 30629ms total)
T27EC 19649:169 JLINK_WriteReg(R11, 0x00000000)  returns 0x00 (0000ms, 30629ms total)
T27EC 19649:169 JLINK_WriteReg(R12, 0x00000000)  returns 0x00 (0000ms, 30629ms total)
T27EC 19649:169 JLINK_WriteReg(R13 (SP), 0x20011000)  returns 0x00 (0000ms, 30629ms total)
T27EC 19649:169 JLINK_WriteReg(R14, 0x20010001)  returns 0x00 (0000ms, 30629ms total)
T27EC 19649:169 JLINK_WriteReg(R15 (PC), 0x20010112)  returns 0x00 (0000ms, 30629ms total)
T27EC 19649:169 JLINK_WriteReg(XPSR, 0x01000000)  returns 0x00 (0000ms, 30629ms total)
T27EC 19649:169 JLINK_WriteReg(MSP, 0x20011000)  returns 0x00 (0000ms, 30629ms total)
T27EC 19649:169 JLINK_WriteReg(PSP, 0x20011000)  returns 0x00 (0000ms, 30629ms total)
T27EC 19649:169 JLINK_WriteReg(CFBP, 0x00000000)  returns 0x00 (0000ms, 30629ms total)
T27EC 19649:169 JLINK_SetBPEx(Addr = 0x20010000, Type = 0xFFFFFFF2)  returns 0x00000008 (0000ms, 30629ms total)
T27EC 19649:169 JLINK_Go() -- CPU_WriteMem(4 bytes @ 0xE0002000) -- CPU_ReadMem(4 bytes @ 0xE0001000) (0002ms, 30631ms total)
T27EC 19649:171 JLINK_IsHalted()  returns FALSE (0000ms, 30631ms total)
T27EC 19649:173 JLINK_IsHalted()  returns FALSE (0000ms, 30631ms total)
T27EC 19649:175 JLINK_IsHalted()  returns FALSE (0000ms, 30631ms total)
T27EC 19649:177 JLINK_IsHalted()  returns TRUE (0001ms, 30632ms total)
T27EC 19649:178 JLINK_ReadReg(R15 (PC))  returns 0x20010000 (0000ms, 30631ms total)
T27EC 19649:178 JLINK_ClrBPEx(BPHandle = 0x00000008)  returns 0x00 (0000ms, 30631ms total)
T27EC 19649:178 JLINK_ReadReg(R0)  returns 0x00000000 (0001ms, 30632ms total)
T27EC 19649:179 JLINK_WriteMem(0x200101A0, 0x0260 Bytes, ...) - Data: CA B2 10 3A A3 FB 02 32 12 09 08 4B 9B 5C 43 65 ... -- CPU_WriteMem(608 bytes @ 0x200101A0)  returns 0x260 (0003ms, 30635ms total)
T27EC 19649:182 JLINK_WriteMem(0x20010400, 0x01A0 Bytes, ...) - Data: 10 B5 8A B0 04 46 22 23 6A 46 BA 20 40 F2 21 71 ... -- CPU_WriteMem(416 bytes @ 0x20010400)  returns 0x1A0 (0002ms, 30637ms total)
T27EC 19649:184 JLINK_WriteReg(R0, 0x08000C00)  returns 0x00 (0000ms, 30637ms total)
T27EC 19649:184 JLINK_WriteReg(R1, 0x00000400)  returns 0x00 (0000ms, 30637ms total)
T27EC 19649:184 JLINK_WriteReg(R2, 0x200101A0)  returns 0x00 (0000ms, 30637ms total)
T27EC 19649:184 JLINK_WriteReg(R3, 0x00000000)  returns 0x00 (0000ms, 30637ms total)
T27EC 19649:184 JLINK_WriteReg(R4, 0x00000000)  returns 0x00 (0000ms, 30637ms total)
T27EC 19649:184 JLINK_WriteReg(R5, 0x00000000)  returns 0x00 (0000ms, 30637ms total)
T27EC 19649:184 JLINK_WriteReg(R6, 0x00000000)  returns 0x00 (0000ms, 30637ms total)
T27EC 19649:184 JLINK_WriteReg(R7, 0x00000000)  returns 0x00 (0000ms, 30637ms total)
T27EC 19649:184 JLINK_WriteReg(R8, 0x00000000)  returns 0x00 (0000ms, 30637ms total)
T27EC 19649:184 JLINK_WriteReg(R9, 0x2001019C)  returns 0x00 (0000ms, 30637ms total)
T27EC 19649:184 JLINK_WriteReg(R10, 0x00000000)  returns 0x00 (0000ms, 30637ms total)
T27EC 19649:184 JLINK_WriteReg(R11, 0x00000000)  returns 0x00 (0000ms, 30637ms total)
T27EC 19649:184 JLINK_WriteReg(R12, 0x00000000)  returns 0x00 (0000ms, 30637ms total)
T27EC 19649:184 JLINK_WriteReg(R13 (SP), 0x20011000)  returns 0x00 (0000ms, 30637ms total)
T27EC 19649:184 JLINK_WriteReg(R14, 0x20010001)  returns 0x00 (0000ms, 30637ms total)
T27EC 19649:184 JLINK_WriteReg(R15 (PC), 0x20010112)  returns 0x00 (0000ms, 30637ms total)
T27EC 19649:184 JLINK_WriteReg(XPSR, 0x01000000)  returns 0x00 (0000ms, 30637ms total)
T27EC 19649:184 JLINK_WriteReg(MSP, 0x20011000)  returns 0x00 (0000ms, 30637ms total)
T27EC 19649:184 JLINK_WriteReg(PSP, 0x20011000)  returns 0x00 (0000ms, 30637ms total)
T27EC 19649:184 JLINK_WriteReg(CFBP, 0x00000000)  returns 0x00 (0000ms, 30637ms total)
T27EC 19649:184 JLINK_SetBPEx(Addr = 0x20010000, Type = 0xFFFFFFF2)  returns 0x00000009 (0000ms, 30637ms total)
T27EC 19649:184 JLINK_Go() -- CPU_WriteMem(4 bytes @ 0xE0002000) -- CPU_ReadMem(4 bytes @ 0xE0001000) (0002ms, 30639ms total)
T27EC 19649:186 JLINK_IsHalted()  returns FALSE (0000ms, 30639ms total)
T27EC 19649:188 JLINK_IsHalted()  returns FALSE (0000ms, 30639ms total)
T27EC 19649:190 JLINK_IsHalted()  returns FALSE (0000ms, 30639ms total)
T27EC 19649:192 JLINK_IsHalted()  returns TRUE (0001ms, 30640ms total)
T27EC 19649:193 JLINK_ReadReg(R15 (PC))  returns 0x20010000 (0000ms, 30639ms total)
T27EC 19649:193 JLINK_ClrBPEx(BPHandle = 0x00000009)  returns 0x00 (0000ms, 30639ms total)
T27EC 19649:193 JLINK_ReadReg(R0)  returns 0x00000000 (0000ms, 30639ms total)
T27EC 19649:194 JLINK_WriteMem(0x200101A0, 0x0260 Bytes, ...) - Data: 0D 0A 00 00 78 B4 4F F0 00 0C CD F8 00 C0 90 F8 ... -- CPU_WriteMem(608 bytes @ 0x200101A0)  returns 0x260 (0003ms, 30642ms total)
T27EC 19649:197 JLINK_WriteMem(0x20010400, 0x01A0 Bytes, ...) - Data: 10 64 02 40 40 04 00 20 38 B5 04 46 00 23 00 93 ... -- CPU_WriteMem(416 bytes @ 0x20010400)  returns 0x1A0 (0001ms, 30643ms total)
T27EC 19649:198 JLINK_WriteReg(R0, 0x08001000)  returns 0x00 (0000ms, 30643ms total)
T27EC 19649:198 JLINK_WriteReg(R1, 0x00000400)  returns 0x00 (0000ms, 30643ms total)
T27EC 19649:198 JLINK_WriteReg(R2, 0x200101A0)  returns 0x00 (0001ms, 30644ms total)
T27EC 19649:199 JLINK_WriteReg(R3, 0x00000000)  returns 0x00 (0000ms, 30644ms total)
T27EC 19649:199 JLINK_WriteReg(R4, 0x00000000)  returns 0x00 (0000ms, 30644ms total)
T27EC 19649:199 JLINK_WriteReg(R5, 0x00000000)  returns 0x00 (0000ms, 30644ms total)
T27EC 19649:199 JLINK_WriteReg(R6, 0x00000000)  returns 0x00 (0000ms, 30644ms total)
T27EC 19649:199 JLINK_WriteReg(R7, 0x00000000)  returns 0x00 (0000ms, 30644ms total)
T27EC 19649:199 JLINK_WriteReg(R8, 0x00000000)  returns 0x00 (0000ms, 30644ms total)
T27EC 19649:199 JLINK_WriteReg(R9, 0x2001019C)  returns 0x00 (0000ms, 30644ms total)
T27EC 19649:199 JLINK_WriteReg(R10, 0x00000000)  returns 0x00 (0000ms, 30644ms total)
T27EC 19649:199 JLINK_WriteReg(R11, 0x00000000)  returns 0x00 (0000ms, 30644ms total)
T27EC 19649:199 JLINK_WriteReg(R12, 0x00000000)  returns 0x00 (0000ms, 30644ms total)
T27EC 19649:199 JLINK_WriteReg(R13 (SP), 0x20011000)  returns 0x00 (0000ms, 30644ms total)
T27EC 19649:199 JLINK_WriteReg(R14, 0x20010001)  returns 0x00 (0000ms, 30644ms total)
T27EC 19649:199 JLINK_WriteReg(R15 (PC), 0x20010112)  returns 0x00 (0000ms, 30644ms total)
T27EC 19649:199 JLINK_WriteReg(XPSR, 0x01000000)  returns 0x00 (0000ms, 30644ms total)
T27EC 19649:199 JLINK_WriteReg(MSP, 0x20011000)  returns 0x00 (0000ms, 30644ms total)
T27EC 19649:199 JLINK_WriteReg(PSP, 0x20011000)  returns 0x00 (0000ms, 30644ms total)
T27EC 19649:199 JLINK_WriteReg(CFBP, 0x00000000)  returns 0x00 (0000ms, 30644ms total)
T27EC 19649:199 JLINK_SetBPEx(Addr = 0x20010000, Type = 0xFFFFFFF2)  returns 0x0000000A (0000ms, 30644ms total)
T27EC 19649:199 JLINK_Go() -- CPU_WriteMem(4 bytes @ 0xE0002000) -- CPU_ReadMem(4 bytes @ 0xE0001000) (0001ms, 30645ms total)
T27EC 19649:200 JLINK_IsHalted()  returns FALSE (0001ms, 30646ms total)
T27EC 19649:203 JLINK_IsHalted()  returns FALSE (0000ms, 30645ms total)
T27EC 19649:205 JLINK_IsHalted()  returns FALSE (0000ms, 30645ms total)
T27EC 19649:207 JLINK_IsHalted()  returns TRUE (0001ms, 30646ms total)
T27EC 19649:208 JLINK_ReadReg(R15 (PC))  returns 0x20010000 (0000ms, 30645ms total)
T27EC 19649:208 JLINK_ClrBPEx(BPHandle = 0x0000000A)  returns 0x00 (0000ms, 30645ms total)
T27EC 19649:208 JLINK_ReadReg(R0)  returns 0x00000000 (0000ms, 30645ms total)
T27EC 19649:209 JLINK_WriteMem(0x200101A0, 0x0260 Bytes, ...) - Data: 09 29 3D D0 41 E0 70 BC 02 20 70 47 D0 F8 00 C0 ... -- CPU_WriteMem(608 bytes @ 0x200101A0)  returns 0x260 (0003ms, 30648ms total)
T27EC 19649:212 JLINK_WriteMem(0x20010400, 0x01A0 Bytes, ...) - Data: 20 68 01 68 41 F0 01 01 01 60 00 20 38 BD 02 20 ... -- CPU_WriteMem(416 bytes @ 0x20010400)  returns 0x1A0 (0001ms, 30649ms total)
T27EC 19649:213 JLINK_WriteReg(R0, 0x08001400)  returns 0x00 (0000ms, 30649ms total)
T27EC 19649:213 JLINK_WriteReg(R1, 0x00000400)  returns 0x00 (0001ms, 30650ms total)
T27EC 19649:214 JLINK_WriteReg(R2, 0x200101A0)  returns 0x00 (0000ms, 30650ms total)
T27EC 19649:214 JLINK_WriteReg(R3, 0x00000000)  returns 0x00 (0000ms, 30650ms total)
T27EC 19649:214 JLINK_WriteReg(R4, 0x00000000)  returns 0x00 (0000ms, 30650ms total)
T27EC 19649:214 JLINK_WriteReg(R5, 0x00000000)  returns 0x00 (0000ms, 30650ms total)
T27EC 19649:214 JLINK_WriteReg(R6, 0x00000000)  returns 0x00 (0000ms, 30650ms total)
T27EC 19649:214 JLINK_WriteReg(R7, 0x00000000)  returns 0x00 (0000ms, 30650ms total)
T27EC 19649:214 JLINK_WriteReg(R8, 0x00000000)  returns 0x00 (0000ms, 30650ms total)
T27EC 19649:214 JLINK_WriteReg(R9, 0x2001019C)  returns 0x00 (0000ms, 30650ms total)
T27EC 19649:214 JLINK_WriteReg(R10, 0x00000000)  returns 0x00 (0000ms, 30650ms total)
T27EC 19649:214 JLINK_WriteReg(R11, 0x00000000)  returns 0x00 (0000ms, 30650ms total)
T27EC 19649:214 JLINK_WriteReg(R12, 0x00000000)  returns 0x00 (0000ms, 30650ms total)
T27EC 19649:214 JLINK_WriteReg(R13 (SP), 0x20011000)  returns 0x00 (0000ms, 30650ms total)
T27EC 19649:214 JLINK_WriteReg(R14, 0x20010001)  returns 0x00 (0000ms, 30650ms total)
T27EC 19649:214 JLINK_WriteReg(R15 (PC), 0x20010112)  returns 0x00 (0000ms, 30650ms total)
T27EC 19649:214 JLINK_WriteReg(XPSR, 0x01000000)  returns 0x00 (0000ms, 30650ms total)
T27EC 19649:214 JLINK_WriteReg(MSP, 0x20011000)  returns 0x00 (0000ms, 30650ms total)
T27EC 19649:214 JLINK_WriteReg(PSP, 0x20011000)  returns 0x00 (0000ms, 30650ms total)
T27EC 19649:214 JLINK_WriteReg(CFBP, 0x00000000)  returns 0x00 (0000ms, 30650ms total)
T27EC 19649:214 JLINK_SetBPEx(Addr = 0x20010000, Type = 0xFFFFFFF2)  returns 0x0000000B (0000ms, 30650ms total)
T27EC 19649:214 JLINK_Go() -- CPU_WriteMem(4 bytes @ 0xE0002000) -- CPU_ReadMem(4 bytes @ 0xE0001000) (0001ms, 30651ms total)
T27EC 19649:216 JLINK_IsHalted()  returns FALSE (0000ms, 30652ms total)
T27EC 19649:218 JLINK_IsHalted()  returns FALSE (0000ms, 30652ms total)
T27EC 19649:220 JLINK_IsHalted()  returns FALSE (0000ms, 30652ms total)
T27EC 19649:222 JLINK_IsHalted()  returns TRUE (0001ms, 30653ms total)
T27EC 19649:223 JLINK_ReadReg(R15 (PC))  returns 0x20010000 (0000ms, 30652ms total)
T27EC 19649:223 JLINK_ClrBPEx(BPHandle = 0x0000000B)  returns 0x00 (0001ms, 30653ms total)
T27EC 19649:224 JLINK_ReadReg(R0)  returns 0x00000000 (0000ms, 30653ms total)
T27EC 19649:225 JLINK_WriteMem(0x200101A0, 0x0260 Bytes, ...) - Data: 08 48 00 F0 2D F8 07 B0 F0 BD 00 00 08 00 00 20 ... -- CPU_WriteMem(608 bytes @ 0x200101A0)  returns 0x260 (0002ms, 30655ms total)
T27EC 19649:228 JLINK_WriteMem(0x20010400, 0x01A0 Bytes, ...) - Data: B4 E7 4F F0 03 0C B1 E7 4F F0 04 0C AE E7 4F F0 ... -- CPU_WriteMem(416 bytes @ 0x20010400)  returns 0x1A0 (0001ms, 30656ms total)
T27EC 19649:229 JLINK_WriteReg(R0, 0x08001800)  returns 0x00 (0001ms, 30657ms total)
T27EC 19649:230 JLINK_WriteReg(R1, 0x00000400)  returns 0x00 (0000ms, 30657ms total)
T27EC 19649:230 JLINK_WriteReg(R2, 0x200101A0)  returns 0x00 (0000ms, 30657ms total)
T27EC 19649:230 JLINK_WriteReg(R3, 0x00000000)  returns 0x00 (0000ms, 30657ms total)
T27EC 19649:230 JLINK_WriteReg(R4, 0x00000000)  returns 0x00 (0000ms, 30657ms total)
T27EC 19649:230 JLINK_WriteReg(R5, 0x00000000)  returns 0x00 (0000ms, 30657ms total)
T27EC 19649:230 JLINK_WriteReg(R6, 0x00000000)  returns 0x00 (0000ms, 30657ms total)
T27EC 19649:230 JLINK_WriteReg(R7, 0x00000000)  returns 0x00 (0000ms, 30657ms total)
T27EC 19649:230 JLINK_WriteReg(R8, 0x00000000)  returns 0x00 (0000ms, 30657ms total)
T27EC 19649:230 JLINK_WriteReg(R9, 0x2001019C)  returns 0x00 (0000ms, 30657ms total)
T27EC 19649:230 JLINK_WriteReg(R10, 0x00000000)  returns 0x00 (0000ms, 30657ms total)
T27EC 19649:230 JLINK_WriteReg(R11, 0x00000000)  returns 0x00 (0000ms, 30657ms total)
T27EC 19649:230 JLINK_WriteReg(R12, 0x00000000)  returns 0x00 (0000ms, 30657ms total)
T27EC 19649:230 JLINK_WriteReg(R13 (SP), 0x20011000)  returns 0x00 (0001ms, 30658ms total)
T27EC 19649:231 JLINK_WriteReg(R14, 0x20010001)  returns 0x00 (0000ms, 30658ms total)
T27EC 19649:231 JLINK_WriteReg(R15 (PC), 0x20010112)  returns 0x00 (0000ms, 30658ms total)
T27EC 19649:231 JLINK_WriteReg(XPSR, 0x01000000)  returns 0x00 (0000ms, 30658ms total)
T27EC 19649:231 JLINK_WriteReg(MSP, 0x20011000)  returns 0x00 (0000ms, 30658ms total)
T27EC 19649:231 JLINK_WriteReg(PSP, 0x20011000)  returns 0x00 (0000ms, 30658ms total)
T27EC 19649:231 JLINK_WriteReg(CFBP, 0x00000000)  returns 0x00 (0000ms, 30658ms total)
